<Qucs Dataset 0.0.19>
<indep frequency 31>
  +1.00000000000000000000e+008
  +1.05000000000000000000e+008
  +1.10000000000000000000e+008
  +1.15000000000000000000e+008
  +1.20000000000000000000e+008
  +1.25000000000000000000e+008
  +1.30000000000000000000e+008
  +1.35000000000000000000e+008
  +1.40000000000000000000e+008
  +1.45000000000000000000e+008
  +1.50000000000000000000e+008
  +1.55000000000000000000e+008
  +1.60000000000000000000e+008
  +1.65000000000000000000e+008
  +1.70000000000000000000e+008
  +1.75000000000000000000e+008
  +1.80000000000000000000e+008
  +1.85000000000000000000e+008
  +1.90000000000000000000e+008
  +1.95000000000000000000e+008
  +2.00000000000000000000e+008
  +2.05000000000000000000e+008
  +2.10000000000000000000e+008
  +2.15000000000000000000e+008
  +2.20000000000000000000e+008
  +2.25000000000000000000e+008
  +2.30000000000000000000e+008
  +2.35000000000000000000e+008
  +2.40000000000000000000e+008
  +2.45000000000000000000e+008
  +2.50000000000000000000e+008
</indep>
<dep S[1,1] frequency>
  +7.97729853056265314493e-001-j5.55857586504971301622e-001
  +7.58665612099727382223e-001-j5.93162808643912575768e-001
  +7.08421786775501161060e-001-j6.32017768596827123062e-001
  +6.41523992150903721310e-001-j6.70995332107047537384e-001
  +5.49144047862229145451e-001-j7.05523285461329918711e-001
  +4.17979182452322073349e-001-j7.22360140966129993245e-001
  +2.34831954573767764938e-001-j6.85606432307181545838e-001
  +2.31875326062113140679e-002-j5.16386759333436584640e-001
  -5.69481659481202440176e-002-j1.56761410774700959969e-001
  +1.73612303121856659249e-001+j1.74648513522417614396e-001
  +5.04340527151794670857e-001+j2.32007506576840549783e-001
  +7.19248467382612610699e-001+j1.32379096533868256813e-001
  +8.26740412481871467243e-001+j9.56914186309548719933e-003
  +8.75575343693049790161e-001-j9.67376875578960793156e-002
  +8.95139119146868278420e-001-j1.82891165570438718468e-001
  +8.99856867135794713519e-001-j2.52719621016806006430e-001
  +8.96728327994003482360e-001-j3.10339459663550476520e-001
  +8.89270748149695533513e-001-j3.58916136681346142900e-001
  +8.79330797177248157936e-001-j4.00713614237943549501e-001
  +8.67919631703257810074e-001-j4.37332070636044234480e-001
  +8.55611896429615881310e-001-j4.69911619567886407189e-001
  +8.42744804580645601177e-001-j4.99276825088699305333e-001
  +8.29521758664852004728e-001-j5.26034284264847329382e-001
  +8.16068410717146863753e-001-j5.50637959035437551947e-001
  +8.02464052521928983275e-001-j5.73433212316238338779e-001
  +7.88759730130151215377e-001-j5.94686875076814946972e-001
  +7.74988974692054077842e-001-j6.14608089771046084415e-001
  +7.61174304242787314045e-001-j6.33362988678406013676e-001
  +7.47331239418592918611e-001-j6.51085191446103994650e-001
  +7.33470823756272483074e-001-j6.67883424217780907739e-001
  +7.19601226115815340023e-001-j6.83847127034583279759e-001
</dep>
<dep S[1,2] frequency>
  +1.33647207799778316994e-001+j1.91801587363139763864e-001
  +1.65942744297819216870e-001+j2.12243673813660910232e-001
  +2.09138468903855595515e-001+j2.34421016600997067503e-001
  +2.68715412119807928182e-001+j2.56912940652279486731e-001
  +3.53508577621076292008e-001+j2.75153400701608819023e-001
  +4.76827723069210118734e-001+j2.75906781889306007560e-001
  +6.51877423992915039364e-001+j2.23279191100385410174e-001
  +8.55179779242949633655e-001+j3.84004985739054283123e-002
  +9.26736256709254191399e-001-j3.36664041720507567490e-001
  +6.87366900938240488195e-001-j6.83288671370814171269e-001
  +3.47607702059904044578e-001-j7.55633532231649418520e-001
  +1.23454350535203552508e-001-j6.70758108637211525327e-001
  +6.51026939147957180165e-003-j5.62464521801828154501e-001
  -5.19757649004998212305e-002-j4.70434009384691376177e-001
  -8.13818204040171883085e-002-j3.98313668152353084206e-001
  -9.61252163144172000475e-002-j3.42272339826316107647e-001
  -1.03197877787774505709e-001-j2.98191085663057686705e-001
  -1.06109242537967260467e-001-j2.62902209886178961362e-001
  -1.06698190003515783197e-001-j2.34139797450078346319e-001
  -1.05968116915149429547e-001-j2.10301999740203887646e-001
  -1.04485949507165221117e-001-j1.90247309675558362585e-001
  -1.02581234662487960629e-001-j1.73150040649135833482e-001
  -1.00449770867779175632e-001-j1.58402737388441877675e-001
  -9.82096781330779600161e-002-j1.45550837235225105637e-001
  -9.59327973677214645987e-002-j1.34248626853186669994e-001
  -9.36628135196831829168e-002-j1.24229167669916096273e-001
  -9.14259944965314791387e-002-j1.15283444709396692973e-001
  -8.92377005041606469193e-002-j1.07245680293406461803e-001
  -8.71064067821519100177e-002-j9.99828283564861003407e-002
  -8.50362303918117679036e-002-j9.33869470224678588366e-002
  -8.30285386020552795827e-002-j8.73695827892565363149e-002
</dep>
<dep S[2,1] frequency>
  +1.33647207799778316994e-001+j1.91801587363139763864e-001
  +1.65942744297819216870e-001+j2.12243673813660910232e-001
  +2.09138468903855595515e-001+j2.34421016600997067503e-001
  +2.68715412119807928182e-001+j2.56912940652279486731e-001
  +3.53508577621076292008e-001+j2.75153400701608819023e-001
  +4.76827723069210118734e-001+j2.75906781889306007560e-001
  +6.51877423992915039364e-001+j2.23279191100385410174e-001
  +8.55179779242949633655e-001+j3.84004985739054283123e-002
  +9.26736256709254191399e-001-j3.36664041720507567490e-001
  +6.87366900938240488195e-001-j6.83288671370814171269e-001
  +3.47607702059904044578e-001-j7.55633532231649418520e-001
  +1.23454350535203552508e-001-j6.70758108637211525327e-001
  +6.51026939147957180165e-003-j5.62464521801828154501e-001
  -5.19757649004998212305e-002-j4.70434009384691376177e-001
  -8.13818204040171883085e-002-j3.98313668152353084206e-001
  -9.61252163144172000475e-002-j3.42272339826316107647e-001
  -1.03197877787774505709e-001-j2.98191085663057686705e-001
  -1.06109242537967260467e-001-j2.62902209886178961362e-001
  -1.06698190003515783197e-001-j2.34139797450078346319e-001
  -1.05968116915149429547e-001-j2.10301999740203887646e-001
  -1.04485949507165221117e-001-j1.90247309675558362585e-001
  -1.02581234662487960629e-001-j1.73150040649135833482e-001
  -1.00449770867779175632e-001-j1.58402737388441877675e-001
  -9.82096781330779600161e-002-j1.45550837235225105637e-001
  -9.59327973677214645987e-002-j1.34248626853186669994e-001
  -9.36628135196831829168e-002-j1.24229167669916096273e-001
  -9.14259944965314791387e-002-j1.15283444709396692973e-001
  -8.92377005041606469193e-002-j1.07245680293406461803e-001
  -8.71064067821519100177e-002-j9.99828283564861003407e-002
  -8.50362303918117679036e-002-j9.33869470224678588366e-002
  -8.30285386020552795827e-002-j8.73695827892565363149e-002
</dep>
<dep S[2,2] frequency>
  +7.97729853056265314493e-001-j5.55857586504971301622e-001
  +7.58665612099727493245e-001-j5.93162808643912575768e-001
  +7.08421786775501272082e-001-j6.32017768596827345107e-001
  +6.41523992150903721310e-001-j6.70995332107047537384e-001
  +5.49144047862229145451e-001-j7.05523285461330029733e-001
  +4.17979182452322239882e-001-j7.22360140966129993245e-001
  +2.34831954573767764938e-001-j6.85606432307181656860e-001
  +2.31875326062114250902e-002-j5.16386759333436362596e-001
  -5.69481659481204660622e-002-j1.56761410774701015480e-001
  +1.73612303121856714760e-001+j1.74648513522417836441e-001
  +5.04340527151794781879e-001+j2.32007506576840383250e-001
  +7.19248467382612610699e-001+j1.32379096533868145791e-001
  +8.26740412481871467243e-001+j9.56914186309554271048e-003
  +8.75575343693049790161e-001-j9.67376875578959405377e-002
  +8.95139119146868500465e-001-j1.82891165570438746224e-001
  +8.99856867135794713519e-001-j2.52719621016805950919e-001
  +8.96728327994003593382e-001-j3.10339459663550476520e-001
  +8.89270748149695644535e-001-j3.58916136681346142900e-001
  +8.79330797177248046914e-001-j4.00713614237943605012e-001
  +8.67919631703257810074e-001-j4.37332070636044289991e-001
  +8.55611896429615992332e-001-j4.69911619567886407189e-001
  +8.42744804580645601177e-001-j4.99276825088699249822e-001
  +8.29521758664852004728e-001-j5.26034284264847218360e-001
  +8.16068410717146974775e-001-j5.50637959035437551947e-001
  +8.02464052521928872252e-001-j5.73433212316238338779e-001
  +7.88759730130151215377e-001-j5.94686875076814946972e-001
  +7.74988974692054077842e-001-j6.14608089771046084415e-001
  +7.61174304242787314045e-001-j6.33362988678406013676e-001
  +7.47331239418592696566e-001-j6.51085191446103883628e-001
  +7.33470823756272594096e-001-j6.67883424217780907739e-001
  +7.19601226115815340023e-001-j6.83847127034583390781e-001
</dep>
