<Qucs Dataset 0.0.19>
<indep frequency 13>
  +1.20000000000000000000e+008
  +1.23333333333333328366e+008
  +1.26666666666666671634e+008
  +1.30000000000000000000e+008
  +1.33333333333333328366e+008
  +1.36666666666666656733e+008
  +1.40000000000000000000e+008
  +1.43333333333333343267e+008
  +1.46666666666666656733e+008
  +1.50000000000000000000e+008
  +1.53333333333333343267e+008
  +1.56666666666666656733e+008
  +1.60000000000000000000e+008
</indep>
<dep S[1,1] frequency>
  +2.41842499058971094339e-001-j6.69185528067764323623e-001
  +1.69501387303565120845e-001-j6.35327474243864820380e-001
  +9.80288041265793275159e-002-j5.84867311816770651944e-001
  +3.22378975874166306959e-002-j5.15738713655564673388e-001
  -2.14381764040681987993e-002-j4.27529906465158759943e-001
  -5.56209239995495430264e-002-j3.22625414451348957456e-001
  -6.35261422528428099099e-002-j2.06997281399581456451e-001
  -4.11001714628218550729e-002-j8.99193209837084173053e-002
  +1.11775026688525347396e-002+j1.78096077724483881077e-002
  +8.79579614403940279743e-002+j1.06622979170156062523e-001
  +1.80531931186401345402e-001+j1.70584276928087030800e-001
  +2.79367126094474726994e-001+j2.08255102023179761161e-001
  +3.76344127281119544826e-001+j2.21927092525128599743e-001
</dep>
<dep S[1,2] frequency>
  +6.60810126424334232098e-001+j2.38815643308043085158e-001
  +7.27949091946167858858e-001+j1.94212254267921768935e-001
  +7.94106548016954905123e-001+j1.33099104153004382800e-001
  +8.54471480979266173605e-001+j5.34114724487682462906e-002
  +9.02612894623844530528e-001-j4.52608675250888020658e-002
  +9.31154478141889008214e-001-j1.60531905239538752461e-001
  +9.33314233013976979336e-001-j2.86428171095627404075e-001
  +9.05040723412150027727e-001-j4.13674486263253204932e-001
  +8.46815676430442088041e-001-j5.31470687297737609533e-001
  +7.63990267771304631950e-001-j6.30249004824964931260e-001
  +6.65276041817053354066e-001-j7.04071739577198041360e-001
  +5.60207566942539925137e-001-j7.51499370112409192934e-001
  +4.56906554592231450851e-001-j7.74822472463861378067e-001
</dep>
<dep S[2,1] frequency>
  +6.60810126424334232098e-001+j2.38815643308043085158e-001
  +7.27949091946167858858e-001+j1.94212254267921768935e-001
  +7.94106548016954905123e-001+j1.33099104153004382800e-001
  +8.54471480979266173605e-001+j5.34114724487682462906e-002
  +9.02612894623844530528e-001-j4.52608675250888020658e-002
  +9.31154478141889008214e-001-j1.60531905239538752461e-001
  +9.33314233013976979336e-001-j2.86428171095627404075e-001
  +9.05040723412150027727e-001-j4.13674486263253204932e-001
  +8.46815676430442088041e-001-j5.31470687297737609533e-001
  +7.63990267771304631950e-001-j6.30249004824964931260e-001
  +6.65276041817053354066e-001-j7.04071739577198041360e-001
  +5.60207566942539925137e-001-j7.51499370112409192934e-001
  +4.56906554592231450851e-001-j7.74822472463861378067e-001
</dep>
<dep S[2,2] frequency>
  +2.41842499058971122095e-001-j6.69185528067764323623e-001
  +1.69501387303565176357e-001-j6.35327474243864820380e-001
  +9.80288041265796050716e-002-j5.84867311816770873989e-001
  +3.22378975874164641624e-002-j5.15738713655564562366e-001
  -2.14381764040683098216e-002-j4.27529906465159204032e-001
  -5.56209239995495430264e-002-j3.22625414451348901945e-001
  -6.35261422528432539991e-002-j2.06997281399581234407e-001
  -4.11001714628219660952e-002-j8.99193209837083479163e-002
  +1.11775026688525347396e-002+j1.78096077724481244298e-002
  +8.79579614403941389966e-002+j1.06622979170156034767e-001
  +1.80531931186401317646e-001+j1.70584276928086864267e-001
  +2.79367126094474615972e-001+j2.08255102023179733406e-001
  +3.76344127281119655848e-001+j2.21927092525128766276e-001
</dep>
